DC Offset	Amplitude	Zfreq	Zreal	Zimag	Zphz	Zmod
0.450000	0.001500	500015.625000	0.029714	0.022776	37.469933	0.037439	
0.450000	0.001500	445640.625000	-0.001062	0.042368	91.436035	0.042381	
0.450000	0.001500	397171.875000	-0.000118	0.040012	90.168266	0.040012	
0.450000	0.001500	354046.875000	0.000853	0.038331	88.725662	0.038340	
0.450000	0.001500	315515.625000	0.000811	0.034190	88.641724	0.034200	
0.450000	0.001500	281203.125000	0.001341	0.030258	87.462250	0.030288	
0.450000	0.001500	250640.625000	0.003238	0.029623	83.762428	0.029800	
0.450000	0.001500	223359.375000	0.001961	0.026345	85.742714	0.026418	
0.450000	0.001500	199078.125000	0.001815	0.023492	85.582413	0.023562	
0.450000	0.001500	177421.875000	0.002034	0.021112	84.496147	0.021210	
0.450000	0.001500	158203.125000	0.002088	0.019050	83.744232	0.019165	
0.450000	0.001500	140953.125000	0.002184	0.017341	82.822365	0.017478	
0.450000	0.001500	125671.875000	0.002126	0.015617	82.247353	0.015761	
0.450000	0.001500	111984.375000	0.002135	0.014051	81.359459	0.014212	
0.450000	0.001500	99796.875000	0.002178	0.012715	80.279144	0.012901	
0.450000	0.001500	88921.875000	0.002124	0.011488	79.524162	0.011683	
0.450000	0.001500	79265.625000	0.002072	0.010360	78.689217	0.010565	
0.450000	0.001500	70640.625000	0.002016	0.009369	77.853958	0.009583	
0.450000	0.001500	62953.125000	0.001904	0.008455	77.308823	0.008667	
0.450000	0.001500	56109.375000	0.001836	0.007655	76.516388	0.007872	
0.450000	0.001500	50015.625000	0.001736	0.006940	75.958023	0.007154	
0.450000	0.001500	44578.125000	0.001662	0.006267	75.143967	0.006483	
0.450000	0.001500	39796.875000	0.001579	0.005688	74.484520	0.005904	
0.450000	0.001500	35484.375000	0.001488	0.005144	73.868736	0.005355	
0.450000	0.001500	31640.625000	0.001415	0.004664	73.125534	0.004874	
0.450000	0.001500	28171.875000	0.001335	0.004215	72.428543	0.004421	
0.450000	0.001500	25078.125000	0.001259	0.003804	71.681854	0.004007	
0.450000	0.001500	22359.375000	0.001185	0.003446	71.029396	0.003644	
0.450000	0.001500	19921.875000	0.001121	0.003101	70.129654	0.003297	
0.450000	0.001500	17765.625000	0.001059	0.002793	69.226479	0.002987	
0.450000	0.001500	15890.625000	0.001002	0.002520	68.306152	0.002712	
0.450000	0.001500	14109.375000	0.000957	0.002244	66.904434	0.002440	
0.450000	0.001500	12609.375000	0.000925	0.002015	65.336334	0.002217	
0.450000	0.001500	11203.125000	0.000891	0.001782	63.437405	0.001992	
0.450000	0.001500	9984.375000	0.000867	0.001588	61.372307	0.001809	
0.450000	0.001500	8953.125000	0.000851	0.001415	58.994762	0.001651	
0.450000	0.001500	7858.456055	0.000837	0.001237	55.911793	0.001494	
0.450000	0.001500	7078.125000	0.000827	0.001107	53.263218	0.001382	
0.450000	0.001500	6328.125000	0.000819	0.000982	50.153934	0.001279	
0.450000	0.001500	5560.661621	0.000814	0.000852	46.295849	0.001178	
0.450000	0.001500	5015.625000	0.000809	0.000759	43.178871	0.001109	
0.450000	0.001500	4457.720703	0.000808	0.000661	39.295273	0.001044	
0.450000	0.001500	3984.375000	0.000804	0.000576	35.618187	0.000989	
0.450000	0.001500	3538.603027	0.000805	0.000496	31.664648	0.000945	
0.450000	0.001500	3170.955811	0.000809	0.000427	27.851011	0.000914	
0.450000	0.001500	2803.308838	0.000808	0.000359	23.942196	0.000885	
0.450000	0.001500	2527.573486	0.000814	0.000306	20.593250	0.000870	
0.450000	0.001500	2251.838135	0.000820	0.000270	18.204363	0.000863	
0.450000	0.001500	1976.102905	0.000819	0.000192	13.224493	0.000841	
0.450000	0.001500	1757.812500	0.000832	0.000151	10.275274	0.000845	
0.450000	0.001500	1577.524048	0.000833	0.000110	7.490022	0.000840	
0.450000	0.001500	1397.235596	0.000838	0.000060	4.119867	0.000840	
0.450000	0.001500	1265.625000	0.000845	0.000038	2.593328	0.000846	
0.450000	0.001500	1126.802856	0.000855	-0.000007	-0.478839	0.000855	
0.450000	0.001500	998.263855	0.000858	-0.000035	-2.336256	0.000859	
0.450000	0.001500	890.625000	0.000872	-0.000077	-5.074008	0.000875	
0.450000	0.001500	796.875000	0.000872	-0.000100	-6.558372	0.000878	
0.450000	0.001500	711.495544	0.000886	-0.000142	-9.081512	0.000897	
0.450000	0.001500	627.790161	0.000898	-0.000180	-11.365847	0.000916	
0.450000	0.001500	564.236084	0.000899	-0.000208	-13.009724	0.000923	
0.450000	0.001500	495.793274	0.000909	-0.000247	-15.214280	0.000942	
0.450000	0.001500	444.504333	0.000917	-0.000283	-17.128340	0.000960	
0.450000	0.001500	397.995270	0.000925	-0.000320	-19.094770	0.000979	
0.450000	0.001500	351.562500	0.000935	-0.000366	-21.360266	0.001004	
0.450000	0.001500	315.504822	0.000943	-0.000409	-23.437016	0.001028	
0.450000	0.001500	282.866394	0.000952	-0.000455	-25.562466	0.001055	
0.450000	0.001500	252.403839	0.000961	-0.000509	-27.891291	0.001087	
0.450000	0.001500	225.360580	0.000970	-0.000566	-30.243345	0.001123	
0.450000	0.001500	198.622894	0.000981	-0.000637	-33.002968	0.001170	
0.450000	0.001500	177.556824	0.000991	-0.000707	-35.517822	0.001217	
0.450000	0.001500	158.361496	0.001002	-0.000786	-38.111301	0.001273	
0.450000	0.001500	141.189758	0.001012	-0.000873	-40.771614	0.001337	
0.450000	0.001500	125.558029	0.001024	-0.000971	-43.484535	0.001411	
0.450000	0.001500	111.607147	0.001038	-0.001082	-46.192123	0.001499	
0.450000	0.001500	100.446426	0.001047	-0.001191	-48.665802	0.001586	
0.450000	0.001500	89.003166	0.001060	-0.001332	-51.498837	0.001702	
0.450000	0.001500	79.002808	0.001074	-0.001490	-54.222607	0.001837	
0.450000	0.001500	70.312500	0.001083	-0.001656	-56.816078	0.001978	
0.450000	0.001500	62.779015	0.001098	-0.001841	-59.184959	0.002143	
0.450000	0.001500	56.250000	0.001110	-0.002038	-61.432270	0.002321	
0.450000	0.001500	49.867020	0.001125	-0.002287	-63.798737	0.002549	
0.450000	0.001500	44.221699	0.001135	-0.002560	-66.093163	0.002800	
0.450000	0.001500	39.724579	0.001159	-0.002838	-67.778580	0.003066	
0.450000	0.001500	35.511364	0.001164	-0.003158	-69.771919	0.003365	
0.450000	0.001500	31.672298	0.001181	-0.003527	-71.483826	0.003720	
0.450000	0.001500	28.237953	0.001194	-0.003939	-73.132408	0.004116	
0.450000	0.001500	24.933512	0.001211	-0.004438	-74.737778	0.004600	
0.450000	0.001500	22.536058	0.001229	-0.004885	-75.876617	0.005037	
0.450000	0.001500	19.862289	0.001251	-0.005515	-77.218033	0.005655	
0.450000	0.001500	17.755682	0.001295	-0.006163	-78.134346	0.006297	
0.450000	0.001500	15.836149	0.001317	-0.006882	-79.166664	0.007007	
0.450000	0.001500	14.204545	0.001343	-0.007653	-80.049667	0.007769	
0.450000	0.001500	12.600806	0.001381	-0.008600	-80.878510	0.008710	
0.450000	0.001500	11.268029	0.001390	-0.009594	-81.758545	0.009694	
0.450000	0.001500	9.931145	0.001476	-0.010850	-82.252129	0.010950	
0.450000	0.001500	8.844339	0.001531	-0.012124	-82.800491	0.012220	
0.450000	0.001500	7.944915	0.001571	-0.013459	-83.341393	0.013550	
0.450000	0.001500	7.102273	0.001639	-0.015001	-83.765594	0.015090	
0.450000	0.001500	6.317385	0.001736	-0.016829	-84.110680	0.016918	
0.450000	0.001500	5.634015	0.001837	-0.018848	-84.432419	0.018937	
0.450000	0.001500	5.008013	0.001924	-0.021143	-84.801041	0.021230	
0.450000	0.001500	4.422170	0.002065	-0.023852	-85.051414	0.023941	
0.450000	0.001500	3.945707	0.002212	-0.026674	-85.259155	0.026766	
0.450000	0.001500	3.535068	0.002359	-0.029690	-85.456688	0.029784	
0.450000	0.001500	3.158693	0.002536	-0.033142	-85.624184	0.033239	
0.450000	0.001500	2.817007	0.002758	-0.037058	-85.743629	0.037161	
0.450000	0.001500	2.504006	0.002994	-0.041600	-85.883850	0.041708	
0.450000	0.001500	2.253606	0.003287	-0.046105	-85.921501	0.046222	
0.450000	0.001500	1.998082	0.003643	-0.051862	-85.982056	0.051990	
0.450000	0.001500	1.767534	0.003962	-0.058432	-86.120712	0.058566	
0.450000	0.001500	1.584686	0.004454	-0.065026	-86.081436	0.065179	
0.450000	0.001500	1.420455	0.004902	-0.072346	-86.123650	0.072512	
0.450000	0.001500	1.266892	0.005770	-0.080840	-85.917633	0.081046	
0.450000	0.001500	1.120875	0.006536	-0.091150	-85.898804	0.091384	
0.450000	0.001500	0.999041	0.007110	-0.102121	-86.017044	0.102368	
0.450000	0.001500	0.883767	0.008171	-0.113998	-85.900261	0.114290	
0.450000	0.001500	0.794492	0.008151	-0.129637	-86.402428	0.129893	
0.450000	0.001500	0.710227	0.012111	-0.140894	-85.087219	0.141414	
0.450000	0.001500	0.633446	0.012694	-0.158165	-85.411324	0.158674	
0.450000	0.001500	0.564759	0.013932	-0.176692	-85.491730	0.177240	
0.450000	0.001500	0.504032	0.015956	-0.197826	-85.388618	0.198468	
0.450000	0.001500	0.446429	0.018495	-0.221605	-85.229073	0.222375	
0.450000	0.001500	0.397246	0.021109	-0.247614	-85.127449	0.248512	
0.450000	0.001500	0.355114	0.023912	-0.275367	-85.037033	0.276403	
0.450000	0.001500	0.316723	0.025905	-0.306897	-85.175110	0.307988	
0.450000	0.001500	0.282380	0.031559	-0.342871	-84.741066	0.344320	
0.450000	0.001500	0.250668	0.035936	-0.382499	-84.632835	0.384183	
0.450000	0.001500	0.224282	0.044266	-0.425737	-84.063980	0.428032	
0.450000	0.001500	0.199468	0.046046	-0.477258	-84.489136	0.479474	
0.450000	0.001500	0.177557	0.057643	-0.531596	-83.811378	0.534712	
0.450000	0.001500	0.158361	0.088219	-0.644749	-82.208748	0.650756	
0.450000	0.001500	0.141190	0.058793	-0.667585	-84.967010	0.670169	
0.450000	0.001500	0.125670	0.080594	-0.736184	-83.752426	0.740582	
0.450000	0.001500	0.112141	0.092416	-0.818359	-83.556984	0.823561	
